
T1E44 000:634 SEGGER J-Link V4.91b (beta) Log File (0001ms, 0422ms total)
T1E44 000:634 DLL Compiled: Sep 15 2014 09:17:56 (0001ms, 0422ms total)
T1E44 000:634 Logging started @ 2015-02-16 21:25 (0001ms, 0422ms total)
T1E44 000:635 JLINK_SetWarnOutHandler(...) (0000ms, 0422ms total)
T1E44 000:635 JLINK_OpenEx(...)
Firmware: J-Link Lite-Cortex-M V8 compiled Jul 17 2014 11:40:12
Hardware: V8.00
S/N: 518007191
Feature(s): GDB  returns O.K. (0416ms, 0838ms total)
T1E44 001:051 JLINK_SetErrorOutHandler(...) (0000ms, 0838ms total)
T1E44 001:051 JLINK_ExecCommand("ProjectFile = "C:\Dropbox\Dropbox\Lighting\lighting\nRF51422\broadcast_tx\pca10031\arm5\JLinkSettings.ini"", ...)  returns 0x00 (0000ms, 0838ms total)
T1E44 001:051 JLINK_ExecCommand("Device = nRF51422_xxAA", ...)Device "NRF51422_XXAA" selected (257 KB flash, 16 KB RAM).  returns 0x00 (0003ms, 0841ms total)
T1E44 001:054 JLINK_ExecCommand("DisableConnectionTimeout", ...)  returns 0x01 (0000ms, 0841ms total)
T1E44 001:054 JLINK_GetHardwareVersion()  returns 0x13880 (0000ms, 0841ms total)
T1E44 001:054 JLINK_GetDLLVersion()  returns 49102 (0000ms, 0841ms total)
T1E44 001:054 JLINK_GetFirmwareString(...) (0000ms, 0841ms total)
T1E44 001:061 JLINK_GetDLLVersion()  returns 49102 (0000ms, 0841ms total)
T1E44 001:061 JLINK_GetCompileDateTime() (0000ms, 0841ms total)
T1E44 001:062 JLINK_GetFirmwareString(...) (0000ms, 0841ms total)
T1E44 001:065 JLINK_GetHardwareVersion()  returns 0x13880 (0000ms, 0841ms total)
T1E44 001:075 JLINK_TIF_Select(JLINKARM_TIF_SWD)  returns 0x00 (0005ms, 0846ms total)
T1E44 001:080 JLINK_SetSpeed(2000) (0000ms, 0846ms total)
T1E44 001:081 JLINK_GetId() >0x108 TIF>Found SWD-DP with ID 0x0BB11477 >0x35 TIF> >0x0D TIF> >0x28 TIF> >0x0D TIF> >0x28 TIF> >0x35 TIF> >0x0D TIF> >0x28 TIF> >0x35 TIF> >0x35 TIF> >0x35 TIF> >0x0D TIF> >0x28 TIF> >0x0D TIF> >0x28 TIF> >0x0D TIF> >0x28 TIF> >0x35 TIF> >0x35 TIF> >0x35 TIF> >0x0D TIF> >0x28 TIF> >0x0D TIF> >0x28 TIF> >0x35 TIF> >0x0D TIF> >0x28 TIF> >0x0D TIF> >0x28 TIF> >0x0D TIF> >0x28 TIF> >0x35 TIF> >0x35 TIF> >0x0D TIF> >0x28 TIF> >0x35 TIF> >0x35 TIF>
Found Cortex-M0 r0p0, Little endian. -- CPU_WriteMem(4 bytes @ 0xE0002000) -- CPU_ReadMem(4 bytes @ 0xE000EDF0) -- CPU_WriteMem(4 bytes @ 0xE000EDF0) -- CPU_ReadMem(4 bytes @ 0xE0002000)FPUnit: 4 code (BP) slots and 0 literal slots -- CPU_ReadMem(4 bytes @ 0xE000EDFC) -- CPU_WriteMem(4 bytes @ 0xE000EDFC) -- CPU_ReadMem(4 bytes @ 0xE0001000) -- CPU_WriteMem(4 bytes @ 0xE0001000) -- CPU_ReadMem(4 bytes @ 0xE00FF018) >0x35 TIF>  returns 0x0BB11477 (0068ms, 0915ms total)
T1E44 001:149 JLINK_GetDeviceFamily()  returns 6 (0000ms, 0915ms total)
T1E44 001:152 JLINK_ReadMem (0xE00FFFF0, 0x0010 Bytes, ...) -- CPU is running -- CPU_ReadMem(16 bytes @ 0xE00FFFF0) - Data: 0D 00 00 00 10 00 00 00 05 00 00 00 B1 00 00 00  returns 0x00 (0003ms, 0918ms total)
T1E44 001:155 JLINK_ReadMem (0xE00FFFD0, 0x0020 Bytes, ...) -- CPU is running -- CPU_ReadMem(32 bytes @ 0xE00FFFD0) - Data: 04 00 00 00 00 00 00 00 00 00 00 00 00 00 00 00 ...  returns 0x00 (0001ms, 0919ms total)
T1E44 001:156 JLINK_ReadMem (0xE00FF000, 0x0018 Bytes, ...) -- CPU is running -- CPU_ReadMem(24 bytes @ 0xE00FF000) - Data: 03 F0 F0 FF 03 20 F0 FF 03 30 F0 FF 00 00 00 00 ...  returns 0x00 (0002ms, 0921ms total)
T1E44 001:158 JLINK_ReadMemU32(0xE000ED00, 0x0001 Items, ...) -- CPU is running -- CPU_ReadMem(4 bytes @ 0xE000ED00) - Data: 00 C2 0C 41  returns 0x01 (0001ms, 0922ms total)
T1E44 001:159 JLINK_SetResetType(JLINKARM_RESET_TYPE_NORMAL)  returns JLINKARM_RESET_TYPE_NORMAL (0000ms, 0922ms total)
T1E44 001:159 JLINK_Reset() -- CPU is running -- CPU_WriteMem(4 bytes @ 0xE000EDF0) -- CPU is running -- CPU_WriteMem(4 bytes @ 0xE000EDFC) >0x35 TIF> -- CPU is running -- CPU_WriteMem(4 bytes @ 0xE000ED0C) -- CPU is running -- CPU_ReadMem(4 bytes @ 0xE000EDF0) -- CPU is running -- CPU_ReadMem(4 bytes @ 0xE000EDF0) -- CPU is running -- CPU_WriteMem(4 bytes @ 0xE000EDF0) -- CPU is running -- CPU_WriteMem(4 bytes @ 0xE000EDFC) -- CPU is running -- CPU_ReadMem(4 bytes @ 0xE000EDF0)
 -- CPU_WriteMem(4 bytes @ 0xE0002000) -- CPU_ReadMem(4 bytes @ 0xE000EDFC) -- CPU_ReadMem(4 bytes @ 0xE0001000) -- CPU_WriteMem(4 bytes @ 0xE0001000) (0026ms, 0948ms total)
T1E44 001:185 JLINK_ReadReg(R15 (PC))  returns 0x000006D0 (0000ms, 0948ms total)
T1E44 001:185 JLINK_ReadReg(XPSR)  returns 0xC1000000 (0000ms, 0948ms total)
T1E44 001:185 JLINK_Halt()  returns 0x00 (0000ms, 0948ms total)
T1E44 001:185 JLINK_IsHalted()  returns TRUE (0000ms, 0948ms total)
T1E44 001:185 JLINK_ReadMemU32(0xE000EDF0, 0x0001 Items, ...) -- CPU_ReadMem(4 bytes @ 0xE000EDF0) - Data: 03 00 03 00  returns 0x01 (0001ms, 0949ms total)
T1E44 001:186 JLINK_WriteU32(0xE000EDF0, 0xA05F0003) -- CPU_WriteMem(4 bytes @ 0xE000EDF0)  returns 0x00 (0001ms, 0950ms total)
T1E44 001:187 JLINK_WriteU32(0xE000EDFC, 0x01000000) -- CPU_WriteMem(4 bytes @ 0xE000EDFC)  returns 0x00 (0001ms, 0951ms total)
T1E44 001:255 JLINK_GetHWStatus(...)  returns 0x00 (0002ms, 0953ms total)
T1E44 001:262 JLINK_GetNumBPUnits(Type = 0xFFFFFF00)  returns 0x04 (0000ms, 0953ms total)
T1E44 001:262 JLINK_GetNumBPUnits(Type = 0xF0)  returns 0x2000 (0000ms, 0953ms total)
T1E44 001:262 JLINK_GetNumWPUnits()  returns 0x02 (0000ms, 0953ms total)
T1E44 001:265 JLINK_GetSpeed()  returns 0x7D0 (0000ms, 0953ms total)
T1E44 001:268 JLINK_ReadMemU32(0xE000E004, 0x0001 Items, ...) -- CPU_ReadMem(4 bytes @ 0xE000E004) - Data: 00 00 00 00  returns 0x01 (0001ms, 0954ms total)
T1E44 001:269 JLINK_ReadReg(R15 (PC))  returns 0x000006D0 (0000ms, 0954ms total)
T1E44 001:269 JLINK_ReadReg(XPSR)  returns 0xC1000000 (0000ms, 0954ms total)
T1E44 001:379 JLINK_SetResetType(JLINKARM_RESET_TYPE_NORMAL)  returns JLINKARM_RESET_TYPE_NORMAL (0000ms, 0954ms total)
T1E44 001:379 JLINK_Reset() -- CPU_WriteMem(4 bytes @ 0xE000EDF0) -- CPU_WriteMem(4 bytes @ 0xE000EDFC) >0x35 TIF> -- CPU_WriteMem(4 bytes @ 0xE000ED0C) -- CPU_ReadMem(4 bytes @ 0xE000EDF0) -- CPU_ReadMem(4 bytes @ 0xE000EDF0) -- CPU_WriteMem(4 bytes @ 0xE000EDF0) -- CPU_WriteMem(4 bytes @ 0xE000EDFC) -- CPU is running -- CPU_ReadMem(4 bytes @ 0xE000EDF0) -- CPU_WriteMem(4 bytes @ 0xE0002000) -- CPU_ReadMem(4 bytes @ 0xE000EDFC) -- CPU_ReadMem(4 bytes @ 0xE0001000) -- CPU_WriteMem(4 bytes @ 0xE0001000)
 (0028ms, 0982ms total)
T1E44 001:407 JLINK_ReadReg(R15 (PC))  returns 0x000006D0 (0000ms, 0982ms total)
T1E44 001:407 JLINK_ReadReg(XPSR)  returns 0xC1000000 (0000ms, 0982ms total)
T1E44 001:407 JLINK_ReadMem (0x000006D0, 0x003C Bytes, ...) -- CPU_ReadMem(128 bytes @ 0x000006C0) -- Updating C cache (128 bytes @ 0x000006C0) -- Read from C cache (60 bytes @ 0x000006D0) - Data: 16 49 17 4C 24 68 8C 42 0B D1 16 4B 1B 68 99 42 ...  returns 0x00 (0003ms, 0985ms total)
T1E44 001:410 JLINK_ReadMem (0x0000070C, 0x003C Bytes, ...) -- CPU_ReadMem(64 bytes @ 0x00000740) -- Updating C cache (64 bytes @ 0x00000740) -- Read from C cache (60 bytes @ 0x0000070C) - Data: 0E 49 88 42 04 DD 0E 48 02 68 02 21 0A 43 02 60 ...  returns 0x00 (0002ms, 0987ms total)
T1E44 001:412 JLINK_ReadMem (0x00000748, 0x003C Bytes, ...) -- CPU_ReadMem(64 bytes @ 0x00000780) -- Updating C cache (64 bytes @ 0x00000780) -- Read from C cache (60 bytes @ 0x00000748) - Data: 00 20 00 20 24 05 00 40 0D 48 70 45 02 D1 EF F3 ...  returns 0x00 (0002ms, 0989ms total)
T1E44 001:700 JLINK_ReadMem (0x4001F500, 0x0008 Bytes, ...) -- CPU_ReadMem(8 bytes @ 0x4001F500) - Data: 00 00 00 00 00 00 00 00  returns 0x00 (0001ms, 0990ms total)
T1E44 001:701 JLINK_ReadMem (0x4001F508, 0x0004 Bytes, ...) -- CPU_ReadMem(4 bytes @ 0x4001F508) - Data: 00 00 00 00  returns 0x00 (0001ms, 0991ms total)
T1E44 001:702 JLINK_ReadMem (0x4001F510, 0x007C Bytes, ...) -- CPU_ReadMem(124 bytes @ 0x4001F510) - Data: 00 00 00 00 00 00 00 00 00 00 00 00 00 00 00 00 ...  returns 0x00 (0002ms, 0993ms total)
T1E44 001:704 JLINK_ReadMem (0x4001F58C, 0x0004 Bytes, ...) -- CPU_ReadMem(4 bytes @ 0x4001F58C) - Data: 00 00 00 00  returns 0x00 (0001ms, 0994ms total)
T1E44 001:705 JLINK_ReadMem (0x4001F800, 0x000C Bytes, ...) -- CPU_ReadMem(12 bytes @ 0x4001F800) - Data: 00 00 00 00 00 00 00 00 00 00 00 00  returns 0x00 (0001ms, 0995ms total)
T1E44 001:706 JLINK_ReadMem (0x4001F80C, 0x0004 Bytes, ...) -- CPU_ReadMem(4 bytes @ 0x4001F80C) - Data: 00 00 00 00  returns 0x00 (0001ms, 0996ms total)
T1E44 002:012 JLINK_ReadMem (0x40011100, 0x0004 Bytes, ...) -- CPU_ReadMem(4 bytes @ 0x40011100) - Data: 00 00 00 00  returns 0x00 (0002ms, 0998ms total)
T1E44 002:014 JLINK_ReadMem (0x40011104, 0x0004 Bytes, ...) -- CPU_ReadMem(4 bytes @ 0x40011104) - Data: 00 00 00 00  returns 0x00 (0001ms, 0999ms total)
T1E44 002:015 JLINK_ReadMem (0x40011140, 0x000C Bytes, ...) -- CPU_ReadMem(12 bytes @ 0x40011140) - Data: 00 00 00 00 00 00 00 00 00 00 00 00  returns 0x00 (0002ms, 1001ms total)
T1E44 002:017 JLINK_ReadMem (0x4001114C, 0x0004 Bytes, ...) -- CPU_ReadMem(4 bytes @ 0x4001114C) - Data: 00 00 00 00  returns 0x00 (0001ms, 1002ms total)
T1E44 002:018 JLINK_ReadMem (0x40011304, 0x0004 Bytes, ...) -- CPU_ReadMem(4 bytes @ 0x40011304) - Data: 00 00 00 00  returns 0x00 (0001ms, 1003ms total)
T1E44 002:019 JLINK_ReadMem (0x40011308, 0x0004 Bytes, ...) -- CPU_ReadMem(4 bytes @ 0x40011308) - Data: 00 00 00 00  returns 0x00 (0001ms, 1004ms total)
T1E44 002:020 JLINK_ReadMem (0x40011340, 0x0008 Bytes, ...) -- CPU_ReadMem(8 bytes @ 0x40011340) - Data: 00 00 00 00 00 00 00 00  returns 0x00 (0001ms, 1005ms total)
T1E44 002:021 JLINK_ReadMem (0x40011348, 0x0004 Bytes, ...) -- CPU_ReadMem(4 bytes @ 0x40011348) - Data: 00 00 00 00  returns 0x00 (0001ms, 1006ms total)
T1E44 002:022 JLINK_ReadMem (0x40011504, 0x0004 Bytes, ...) -- CPU_ReadMem(4 bytes @ 0x40011504) - Data: 00 00 00 00  returns 0x00 (0001ms, 1007ms total)
T1E44 002:023 JLINK_ReadMem (0x40011508, 0x0004 Bytes, ...) -- CPU_ReadMem(4 bytes @ 0x40011508) - Data: 00 00 00 00  returns 0x00 (0001ms, 1008ms total)
T1E44 002:024 JLINK_ReadMem (0x40011540, 0x000C Bytes, ...) -- CPU_ReadMem(12 bytes @ 0x40011540) - Data: 00 00 00 00 00 00 00 00 00 00 00 00  returns 0x00 (0001ms, 1009ms total)
T1E44 002:025 JLINK_ReadMem (0x4001154C, 0x0004 Bytes, ...) -- CPU_ReadMem(4 bytes @ 0x4001154C) - Data: 00 00 00 00  returns 0x00 (0001ms, 1010ms total)
T1E44 002:026 JLINK_ReadMem (0x40011FFC, 0x0004 Bytes, ...) -- CPU_ReadMem(4 bytes @ 0x40011FFC) - Data: 01 00 00 00  returns 0x00 (0001ms, 1011ms total)
T1E44 002:373 JLINK_ReadMem (0x40003108, 0x0004 Bytes, ...) -- CPU_ReadMem(4 bytes @ 0x40003108) - Data: 00 00 00 00  returns 0x00 (0002ms, 1013ms total)
T1E44 002:375 JLINK_ReadMem (0x40003304, 0x0004 Bytes, ...) -- CPU_ReadMem(4 bytes @ 0x40003304) - Data: 00 00 00 00  returns 0x00 (0001ms, 1014ms total)
T1E44 002:376 JLINK_ReadMem (0x40003308, 0x0004 Bytes, ...) -- CPU_ReadMem(4 bytes @ 0x40003308) - Data: 00 00 00 00  returns 0x00 (0001ms, 1015ms total)
T1E44 002:377 JLINK_ReadMem (0x40003500, 0x0004 Bytes, ...) -- CPU_ReadMem(4 bytes @ 0x40003500) - Data: 00 00 00 00  returns 0x00 (0001ms, 1016ms total)
T1E44 002:378 JLINK_ReadMem (0x40003508, 0x0008 Bytes, ...) -- CPU_ReadMem(8 bytes @ 0x40003508) - Data: FF FF FF FF FF FF FF FF  returns 0x00 (0001ms, 1017ms total)
T1E44 002:379 JLINK_ReadMem (0x40003510, 0x0004 Bytes, ...) -- CPU_ReadMem(4 bytes @ 0x40003510) - Data: FF FF FF FF  returns 0x00 (0001ms, 1018ms total)
T1E44 002:380 JLINK_ReadMem (0x4000351C, 0x0004 Bytes, ...) -- CPU_ReadMem(4 bytes @ 0x4000351C) - Data: 00 00 00 00  returns 0x00 (0001ms, 1019ms total)
T1E44 002:381 JLINK_ReadMem (0x40003524, 0x0004 Bytes, ...) -- CPU_ReadMem(4 bytes @ 0x40003524) - Data: 00 00 00 04  returns 0x00 (0001ms, 1020ms total)
T1E44 002:382 JLINK_ReadMem (0x40003554, 0x0004 Bytes, ...) -- CPU_ReadMem(4 bytes @ 0x40003554) - Data: 00 00 00 00  returns 0x00 (0001ms, 1021ms total)
T1E44 002:383 JLINK_ReadMem (0x40003FFC, 0x0004 Bytes, ...) -- CPU_ReadMem(4 bytes @ 0x40003FFC) - Data: 01 00 00 00  returns 0x00 (0001ms, 1022ms total)
T1E44 002:707 JLINK_ReadMem (0x4000C100, 0x0004 Bytes, ...) -- CPU_ReadMem(4 bytes @ 0x4000C100) - Data: 00 00 00 00  returns 0x00 (0001ms, 1023ms total)
T1E44 002:708 JLINK_ReadMem (0x4000C304, 0x0004 Bytes, ...) -- CPU_ReadMem(4 bytes @ 0x4000C304) - Data: 00 00 00 00  returns 0x00 (0001ms, 1024ms total)
T1E44 002:709 JLINK_ReadMem (0x4000C308, 0x0004 Bytes, ...) -- CPU_ReadMem(4 bytes @ 0x4000C308) - Data: 00 00 00 00  returns 0x00 (0001ms, 1025ms total)
T1E44 002:710 JLINK_ReadMem (0x4000C508, 0x0004 Bytes, ...) -- CPU_ReadMem(4 bytes @ 0x4000C508) - Data: 00 00 00 00  returns 0x00 (0001ms, 1026ms total)
T1E44 002:711 JLINK_ReadMem (0x4000CFFC, 0x0004 Bytes, ...) -- CPU_ReadMem(4 bytes @ 0x4000CFFC) - Data: 01 00 00 00  returns 0x00 (0001ms, 1027ms total)
T1E44 003:041 JLINK_ReadMem (0x40008140, 0x000C Bytes, ...) -- CPU_ReadMem(12 bytes @ 0x40008140) - Data: 00 00 00 00 00 00 00 00 00 00 00 00  returns 0x00 (0002ms, 1029ms total)
T1E44 003:043 JLINK_ReadMem (0x4000814C, 0x0004 Bytes, ...) -- CPU_ReadMem(4 bytes @ 0x4000814C) - Data: 00 00 00 00  returns 0x00 (0001ms, 1030ms total)
T1E44 003:044 JLINK_ReadMem (0x40008200, 0x0004 Bytes, ...) -- CPU_ReadMem(4 bytes @ 0x40008200) - Data: 00 00 00 00  returns 0x00 (0001ms, 1031ms total)
T1E44 003:045 JLINK_ReadMem (0x40008304, 0x0004 Bytes, ...) -- CPU_ReadMem(4 bytes @ 0x40008304) - Data: 00 00 00 00  returns 0x00 (0001ms, 1032ms total)
T1E44 003:046 JLINK_ReadMem (0x40008308, 0x0004 Bytes, ...) -- CPU_ReadMem(4 bytes @ 0x40008308) - Data: 00 00 00 00  returns 0x00 (0001ms, 1033ms total)
T1E44 003:047 JLINK_ReadMem (0x40008504, 0x0004 Bytes, ...) -- CPU_ReadMem(4 bytes @ 0x40008504) - Data: 00 00 00 00  returns 0x00 (0001ms, 1034ms total)
T1E44 003:048 JLINK_ReadMem (0x40008508, 0x0004 Bytes, ...) -- CPU_ReadMem(4 bytes @ 0x40008508) - Data: 00 00 00 00  returns 0x00 (0001ms, 1035ms total)
T1E44 003:049 JLINK_ReadMem (0x40008510, 0x0004 Bytes, ...) -- CPU_ReadMem(4 bytes @ 0x40008510) - Data: 04 00 00 00  returns 0x00 (0001ms, 1036ms total)
T1E44 003:050 JLINK_ReadMem (0x40008540, 0x000C Bytes, ...) -- CPU_ReadMem(12 bytes @ 0x40008540) - Data: 00 00 00 00 00 00 00 00 00 00 00 00  returns 0x00 (0002ms, 1038ms total)
T1E44 003:052 JLINK_ReadMem (0x4000854C, 0x0004 Bytes, ...) -- CPU_ReadMem(4 bytes @ 0x4000854C) - Data: 00 00 00 00  returns 0x00 (0001ms, 1039ms total)
T1E44 003:053 JLINK_ReadMem (0x40008FFC, 0x0004 Bytes, ...) -- CPU_ReadMem(4 bytes @ 0x40008FFC) - Data: 01 00 00 00  returns 0x00 (0001ms, 1040ms total)
T1E44 003:364 JLINK_ReadMem (0x40009140, 0x000C Bytes, ...) -- CPU_ReadMem(12 bytes @ 0x40009140) - Data: 00 00 00 00 00 00 00 00 00 00 00 00  returns 0x00 (0001ms, 1041ms total)
T1E44 003:365 JLINK_ReadMem (0x4000914C, 0x0004 Bytes, ...) -- CPU_ReadMem(4 bytes @ 0x4000914C) - Data: 00 00 00 00  returns 0x00 (0001ms, 1042ms total)
T1E44 003:366 JLINK_ReadMem (0x40009200, 0x0004 Bytes, ...) -- CPU_ReadMem(4 bytes @ 0x40009200) - Data: 00 00 00 00  returns 0x00 (0001ms, 1043ms total)
T1E44 003:367 JLINK_ReadMem (0x40009304, 0x0004 Bytes, ...) -- CPU_ReadMem(4 bytes @ 0x40009304) - Data: 00 00 00 00  returns 0x00 (0001ms, 1044ms total)
T1E44 003:368 JLINK_ReadMem (0x40009308, 0x0004 Bytes, ...) -- CPU_ReadMem(4 bytes @ 0x40009308) - Data: 00 00 00 00  returns 0x00 (0001ms, 1045ms total)
T1E44 003:369 JLINK_ReadMem (0x40009504, 0x0004 Bytes, ...) -- CPU_ReadMem(4 bytes @ 0x40009504) - Data: 00 00 00 00  returns 0x00 (0001ms, 1046ms total)
T1E44 003:370 JLINK_ReadMem (0x40009508, 0x0004 Bytes, ...) -- CPU_ReadMem(4 bytes @ 0x40009508) - Data: 00 00 00 00  returns 0x00 (0001ms, 1047ms total)
T1E44 003:371 JLINK_ReadMem (0x40009510, 0x0004 Bytes, ...) -- CPU_ReadMem(4 bytes @ 0x40009510) - Data: 04 00 00 00  returns 0x00 (0001ms, 1048ms total)
T1E44 003:372 JLINK_ReadMem (0x40009540, 0x000C Bytes, ...) -- CPU_ReadMem(12 bytes @ 0x40009540) - Data: 00 00 00 00 00 00 00 00 00 00 00 00  returns 0x00 (0001ms, 1049ms total)
T1E44 003:373 JLINK_ReadMem (0x4000954C, 0x0004 Bytes, ...) -- CPU_ReadMem(4 bytes @ 0x4000954C) - Data: 00 00 00 00  returns 0x00 (0001ms, 1050ms total)
T1E44 003:374 JLINK_ReadMem (0x40009FFC, 0x0004 Bytes, ...) -- CPU_ReadMem(4 bytes @ 0x40009FFC) - Data: 01 00 00 00  returns 0x00 (0002ms, 1052ms total)
T1E44 003:689 JLINK_ReadMem (0x4000A140, 0x000C Bytes, ...) -- CPU_ReadMem(12 bytes @ 0x4000A140) - Data: 00 00 00 00 00 00 00 00 00 00 00 00  returns 0x00 (0002ms, 1054ms total)
T1E44 003:691 JLINK_ReadMem (0x4000A14C, 0x0004 Bytes, ...) -- CPU_ReadMem(4 bytes @ 0x4000A14C) - Data: 00 00 00 00  returns 0x00 (0001ms, 1055ms total)
T1E44 003:692 JLINK_ReadMem (0x4000A200, 0x0004 Bytes, ...) -- CPU_ReadMem(4 bytes @ 0x4000A200) - Data: 00 00 00 00  returns 0x00 (0001ms, 1056ms total)
T1E44 003:693 JLINK_ReadMem (0x4000A304, 0x0004 Bytes, ...) -- CPU_ReadMem(4 bytes @ 0x4000A304) - Data: 00 00 00 00  returns 0x00 (0001ms, 1057ms total)
T1E44 003:694 JLINK_ReadMem (0x4000A308, 0x0004 Bytes, ...) -- CPU_ReadMem(4 bytes @ 0x4000A308) - Data: 00 00 00 00  returns 0x00 (0001ms, 1058ms total)
T1E44 003:695 JLINK_ReadMem (0x4000A504, 0x0004 Bytes, ...) -- CPU_ReadMem(4 bytes @ 0x4000A504) - Data: 00 00 00 00  returns 0x00 (0001ms, 1059ms total)
T1E44 003:696 JLINK_ReadMem (0x4000A508, 0x0004 Bytes, ...) -- CPU_ReadMem(4 bytes @ 0x4000A508) - Data: 00 00 00 00  returns 0x00 (0001ms, 1060ms total)
T1E44 003:697 JLINK_ReadMem (0x4000A510, 0x0004 Bytes, ...) -- CPU_ReadMem(4 bytes @ 0x4000A510) - Data: 04 00 00 00  returns 0x00 (0001ms, 1061ms total)
T1E44 003:698 JLINK_ReadMem (0x4000A540, 0x000C Bytes, ...) -- CPU_ReadMem(12 bytes @ 0x4000A540) - Data: 00 00 00 00 00 00 00 00 00 00 00 00  returns 0x00 (0001ms, 1062ms total)
T1E44 003:699 JLINK_ReadMem (0x4000A54C, 0x0004 Bytes, ...) -- CPU_ReadMem(4 bytes @ 0x4000A54C) - Data: 00 00 00 00  returns 0x00 (0001ms, 1063ms total)
T1E44 003:700 JLINK_ReadMem (0x4000AFFC, 0x0004 Bytes, ...) -- CPU_ReadMem(4 bytes @ 0x4000AFFC) - Data: 01 00 00 00  returns 0x00 (0001ms, 1064ms total)
T1E44 004:007 JLINK_ReadMem (0x40003104, 0x0004 Bytes, ...) -- CPU_ReadMem(4 bytes @ 0x40003104) - Data: 00 00 00 00  returns 0x00 (0002ms, 1066ms total)
T1E44 004:009 JLINK_ReadMem (0x40003108, 0x0004 Bytes, ...) -- CPU_ReadMem(4 bytes @ 0x40003108) - Data: 00 00 00 00  returns 0x00 (0001ms, 1067ms total)
T1E44 004:010 JLINK_ReadMem (0x4000311C, 0x0004 Bytes, ...) -- CPU_ReadMem(4 bytes @ 0x4000311C) - Data: 00 00 00 00  returns 0x00 (0001ms, 1068ms total)
T1E44 004:011 JLINK_ReadMem (0x40003124, 0x0004 Bytes, ...) -- CPU_ReadMem(4 bytes @ 0x40003124) - Data: 00 00 00 00  returns 0x00 (0001ms, 1069ms total)
T1E44 004:012 JLINK_ReadMem (0x40003138, 0x0004 Bytes, ...) -- CPU_ReadMem(4 bytes @ 0x40003138) - Data: 00 00 00 00  returns 0x00 (0001ms, 1070ms total)
T1E44 004:013 JLINK_ReadMem (0x40003148, 0x0004 Bytes, ...) -- CPU_ReadMem(4 bytes @ 0x40003148) - Data: 00 00 00 00  returns 0x00 (0001ms, 1071ms total)
T1E44 004:014 JLINK_ReadMem (0x40003200, 0x0004 Bytes, ...) -- CPU_ReadMem(4 bytes @ 0x40003200) - Data: 00 00 00 00  returns 0x00 (0001ms, 1072ms total)
T1E44 004:015 JLINK_ReadMem (0x40003304, 0x0004 Bytes, ...) -- CPU_ReadMem(4 bytes @ 0x40003304) - Data: 00 00 00 00  returns 0x00 (0001ms, 1073ms total)
T1E44 004:016 JLINK_ReadMem (0x40003308, 0x0004 Bytes, ...) -- CPU_ReadMem(4 bytes @ 0x40003308) - Data: 00 00 00 00  returns 0x00 (0001ms, 1074ms total)
T1E44 004:017 JLINK_ReadMem (0x400034C4, 0x0004 Bytes, ...) -- CPU_ReadMem(4 bytes @ 0x400034C4) - Data: 00 00 00 00  returns 0x00 (0001ms, 1075ms total)
T1E44 004:018 JLINK_ReadMem (0x40003500, 0x0004 Bytes, ...) -- CPU_ReadMem(4 bytes @ 0x40003500) - Data: 00 00 00 00  returns 0x00 (0001ms, 1076ms total)
T1E44 004:019 JLINK_ReadMem (0x40003508, 0x0004 Bytes, ...) -- CPU_ReadMem(4 bytes @ 0x40003508) - Data: FF FF FF FF  returns 0x00 (0001ms, 1077ms total)
T1E44 004:020 JLINK_ReadMem (0x4000350C, 0x0004 Bytes, ...) -- CPU_ReadMem(4 bytes @ 0x4000350C) - Data: FF FF FF FF  returns 0x00 (0001ms, 1078ms total)
T1E44 004:021 JLINK_ReadMem (0x4000351C, 0x0004 Bytes, ...) -- CPU_ReadMem(4 bytes @ 0x4000351C) - Data: 00 00 00 00  returns 0x00 (0001ms, 1079ms total)
T1E44 004:022 JLINK_ReadMem (0x40003524, 0x0004 Bytes, ...) -- CPU_ReadMem(4 bytes @ 0x40003524) - Data: 00 00 00 04  returns 0x00 (0001ms, 1080ms total)
T1E44 004:023 JLINK_ReadMem (0x40003588, 0x0004 Bytes, ...) -- CPU_ReadMem(4 bytes @ 0x40003588) - Data: 00 00 00 00  returns 0x00 (0001ms, 1081ms total)
T1E44 004:024 JLINK_ReadMem (0x40003FFC, 0x0004 Bytes, ...) -- CPU_ReadMem(4 bytes @ 0x40003FFC) - Data: 01 00 00 00  returns 0x00 (0001ms, 1082ms total)
T1E44 004:368 JLINK_ReadMem (0x40004104, 0x0004 Bytes, ...) -- CPU_ReadMem(4 bytes @ 0x40004104) - Data: 00 00 00 00  returns 0x00 (0002ms, 1084ms total)
T1E44 004:370 JLINK_ReadMem (0x40004108, 0x0004 Bytes, ...) -- CPU_ReadMem(4 bytes @ 0x40004108) - Data: 00 00 00 00  returns 0x00 (0001ms, 1085ms total)
T1E44 004:371 JLINK_ReadMem (0x4000411C, 0x0004 Bytes, ...) -- CPU_ReadMem(4 bytes @ 0x4000411C) - Data: 00 00 00 00  returns 0x00 (0001ms, 1086ms total)
T1E44 004:372 JLINK_ReadMem (0x40004124, 0x0004 Bytes, ...) -- CPU_ReadMem(4 bytes @ 0x40004124) - Data: 00 00 00 00  returns 0x00 (0001ms, 1087ms total)
T1E44 004:373 JLINK_ReadMem (0x40004138, 0x0004 Bytes, ...) -- CPU_ReadMem(4 bytes @ 0x40004138) - Data: 00 00 00 00  returns 0x00 (0001ms, 1088ms total)
T1E44 004:374 JLINK_ReadMem (0x40004148, 0x0004 Bytes, ...) -- CPU_ReadMem(4 bytes @ 0x40004148) - Data: 00 00 00 00  returns 0x00 (0001ms, 1089ms total)
T1E44 004:375 JLINK_ReadMem (0x40004200, 0x0004 Bytes, ...) -- CPU_ReadMem(4 bytes @ 0x40004200) - Data: 00 00 00 00  returns 0x00 (0002ms, 1091ms total)
T1E44 004:377 JLINK_ReadMem (0x40004304, 0x0004 Bytes, ...) -- CPU_ReadMem(4 bytes @ 0x40004304) - Data: 00 00 00 00  returns 0x00 (0001ms, 1092ms total)
T1E44 004:378 JLINK_ReadMem (0x40004308, 0x0004 Bytes, ...) -- CPU_ReadMem(4 bytes @ 0x40004308) - Data: 00 00 00 00  returns 0x00 (0001ms, 1093ms total)
T1E44 004:379 JLINK_ReadMem (0x400044C4, 0x0004 Bytes, ...) -- CPU_ReadMem(4 bytes @ 0x400044C4) - Data: 00 00 00 00  returns 0x00 (0001ms, 1094ms total)
T1E44 004:380 JLINK_ReadMem (0x40004500, 0x0004 Bytes, ...) -- CPU_ReadMem(4 bytes @ 0x40004500) - Data: 00 00 00 00  returns 0x00 (0001ms, 1095ms total)
T1E44 004:381 JLINK_ReadMem (0x40004508, 0x0004 Bytes, ...) -- CPU_ReadMem(4 bytes @ 0x40004508) - Data: FF FF FF FF  returns 0x00 (0001ms, 1096ms total)
T1E44 004:382 JLINK_ReadMem (0x4000450C, 0x0004 Bytes, ...) -- CPU_ReadMem(4 bytes @ 0x4000450C) - Data: FF FF FF FF  returns 0x00 (0001ms, 1097ms total)
T1E44 004:383 JLINK_ReadMem (0x4000451C, 0x0004 Bytes, ...) -- CPU_ReadMem(4 bytes @ 0x4000451C) - Data: 00 00 00 00  returns 0x00 (0001ms, 1098ms total)
T1E44 004:384 JLINK_ReadMem (0x40004524, 0x0004 Bytes, ...) -- CPU_ReadMem(4 bytes @ 0x40004524) - Data: 00 00 00 04  returns 0x00 (0001ms, 1099ms total)
T1E44 004:385 JLINK_ReadMem (0x40004588, 0x0004 Bytes, ...) -- CPU_ReadMem(4 bytes @ 0x40004588) - Data: 00 00 00 00  returns 0x00 (0001ms, 1100ms total)
T1E44 004:386 JLINK_ReadMem (0x40004FFC, 0x0004 Bytes, ...) -- CPU_ReadMem(4 bytes @ 0x40004FFC) - Data: 01 00 00 00  returns 0x00 (0001ms, 1101ms total)
T1E44 008:829 JLINK_ReadMem (0x00000000, 0x02BE Bytes, ...) -- CPU_ReadMem(704 bytes @ 0x00000000) -- Updating C cache (704 bytes @ 0x00000000) -- Read from C cache (702 bytes @ 0x00000000) - Data: C0 07 00 00 D1 06 00 00 D1 00 00 00 B1 06 00 00 ...  returns 0x00 (0010ms, 1111ms total)
T1E44 009:493 JLINK_ReadMem (0x0000D328, 0x003C Bytes, ...) -- CPU_ReadMem(128 bytes @ 0x0000D300) -- Updating C cache (128 bytes @ 0x0000D300) -- Read from C cache (60 bytes @ 0x0000D328) - Data: 0A 48 02 68 00 2A 0C D0 02 68 09 4B 5A 60 00 22 ...  returns 0x00 (0002ms, 1113ms total)
T1E44 009:495 JLINK_ReadMem (0x0000D364, 0x003C Bytes, ...) -- CPU_ReadMem(64 bytes @ 0x0000D380) -- Updating C cache (64 bytes @ 0x0000D380) -- Read from C cache (60 bytes @ 0x0000D364) - Data: 12 1F 08 C1 00 2A FA D1 70 47 70 47 00 20 01 E0 ...  returns 0x00 (0002ms, 1115ms total)
T1938 010:281 JLINK_SetBPEx(Addr = 0x0000D764, Type = 0xFFFFFFF2)  returns 0x00000001 (0002ms, 1117ms total)
T1938 010:283 JLINK_SetBPEx(Addr = 0x0000D530, Type = 0xFFFFFFF2)  returns 0x00000002 (0000ms, 1117ms total)
T1938 010:283 JLINK_Go() -- CPU_WriteMem(4 bytes @ 0xE0002000) -- CPU_WriteMem(4 bytes @ 0xE0002008) -- CPU_WriteMem(4 bytes @ 0xE0002000) -- CPU_WriteMem(4 bytes @ 0xE000200C) -- CPU_WriteMem(4 bytes @ 0xE0002010) -- CPU_WriteMem(4 bytes @ 0xE0002014) -- CPU_WriteMem(4 bytes @ 0xE0001004) (0009ms, 1126ms total)
T1938 010:392 JLINK_IsHalted()  returns TRUE (0004ms, 1130ms total)
T1938 010:396 JLINK_Halt()  returns 0x00 (0000ms, 1126ms total)
T1938 010:396 JLINK_IsHalted()  returns TRUE (0000ms, 1126ms total)
T1938 010:396 JLINK_IsHalted()  returns TRUE (0000ms, 1126ms total)
T1938 010:396 JLINK_IsHalted()  returns TRUE (0000ms, 1126ms total)
T1938 010:396 JLINK_ReadReg(R15 (PC))  returns 0x0000D764 (0000ms, 1126ms total)
T1938 010:396 JLINK_ReadReg(XPSR)  returns 0x61000000 (0000ms, 1126ms total)
T1938 010:396 JLINK_ClrBPEx(BPHandle = 0x00000001)  returns 0x00 (0000ms, 1126ms total)
T1938 010:396 JLINK_ClrBPEx(BPHandle = 0x00000002)  returns 0x00 (0000ms, 1126ms total)
T1938 010:396 JLINK_ReadMemU32(0xE000ED30, 0x0001 Items, ...) -- CPU_ReadMem(4 bytes @ 0xE000ED30) - Data: 03 00 00 00  returns 0x01 (0001ms, 1127ms total)
T1938 010:397 JLINK_ReadMemU32(0xE0001028, 0x0001 Items, ...) -- CPU_ReadMem(4 bytes @ 0xE0001028) - Data: 00 00 00 00  returns 0x01 (0001ms, 1128ms total)
T1938 010:398 JLINK_ReadMemU32(0xE0001038, 0x0001 Items, ...) -- CPU_ReadMem(4 bytes @ 0xE0001038) - Data: 00 00 00 00  returns 0x01 (0001ms, 1129ms total)
T1938 010:399 JLINK_ReadReg(R0)  returns 0x0000D765 (0000ms, 1129ms total)
T1938 010:399 JLINK_ReadReg(R1)  returns 0x20001280 (0000ms, 1129ms total)
T1938 010:399 JLINK_ReadReg(R2)  returns 0x00000000 (0000ms, 1129ms total)
T1938 010:399 JLINK_ReadReg(R3)  returns 0x0000D371 (0000ms, 1129ms total)
T1938 010:399 JLINK_ReadReg(R4)  returns 0x0000DE58 (0000ms, 1129ms total)
T1938 010:399 JLINK_ReadReg(R5)  returns 0x00000001 (0000ms, 1129ms total)
T1938 010:399 JLINK_ReadReg(R6)  returns 0x0000DE58 (0000ms, 1129ms total)
T1938 010:399 JLINK_ReadReg(R7)  returns 0xFFFFFFFF (0000ms, 1129ms total)
T1938 010:399 JLINK_ReadReg(R8)  returns 0xFFFFFFFF (0000ms, 1129ms total)
T1938 010:399 JLINK_ReadReg(R9)  returns 0xFFFFFFFF (0000ms, 1129ms total)
T1938 010:399 JLINK_ReadReg(R10)  returns 0xFFFFFFFF (0000ms, 1129ms total)
T1938 010:399 JLINK_ReadReg(R11)  returns 0xFFFFFFFF (0000ms, 1129ms total)
T1938 010:399 JLINK_ReadReg(R12)  returns 0xFFFFFFFF (0000ms, 1129ms total)
T1938 010:399 JLINK_ReadReg(R13 (SP))  returns 0x20001280 (0000ms, 1129ms total)
T1938 010:399 JLINK_ReadReg(R14)  returns 0x0000D169 (0000ms, 1129ms total)
T1938 010:399 JLINK_ReadReg(R15 (PC))  returns 0x0000D764 (0000ms, 1129ms total)
T1938 010:399 JLINK_ReadReg(XPSR)  returns 0x61000000 (0000ms, 1129ms total)
T1938 010:399 JLINK_ReadReg(MSP)  returns 0x20001280 (0000ms, 1129ms total)
T1938 010:399 JLINK_ReadReg(PSP)  returns 0xFFFFFFFC (0001ms, 1130ms total)
T1938 010:400 JLINK_ReadReg(CFBP)  returns 0x00000000 (0000ms, 1130ms total)
T1E44 010:421 JLINK_ReadMem (0x00000000, 0x0004 Bytes, ...) -- CPU_ReadMem(64 bytes @ 0x00000000) -- Updating C cache (64 bytes @ 0x00000000) -- Read from C cache (4 bytes @ 0x00000000) - Data: C0 07 00 00  returns 0x00 (0002ms, 1132ms total)
T1E44 010:451 JLINK_ReadMem (0x4000A140, 0x000C Bytes, ...) -- CPU_ReadMem(12 bytes @ 0x4000A140) - Data: 00 00 00 00 00 00 00 00 00 00 00 00  returns 0x00 (0001ms, 1133ms total)
T1E44 010:452 JLINK_ReadMem (0x4000A14C, 0x0004 Bytes, ...) -- CPU_ReadMem(4 bytes @ 0x4000A14C) - Data: 00 00 00 00  returns 0x00 (0001ms, 1134ms total)
T1E44 010:453 JLINK_ReadMem (0x4000A200, 0x0004 Bytes, ...) -- CPU_ReadMem(4 bytes @ 0x4000A200) - Data: 00 00 00 00  returns 0x00 (0001ms, 1135ms total)
T1E44 010:454 JLINK_ReadMem (0x4000A304, 0x0004 Bytes, ...) -- CPU_ReadMem(4 bytes @ 0x4000A304) - Data: 00 00 00 00  returns 0x00 (0001ms, 1136ms total)
T1E44 010:455 JLINK_ReadMem (0x4000A308, 0x0004 Bytes, ...) -- CPU_ReadMem(4 bytes @ 0x4000A308) - Data: 00 00 00 00  returns 0x00 (0001ms, 1137ms total)
T1E44 010:456 JLINK_ReadMem (0x4000A504, 0x0004 Bytes, ...) -- CPU_ReadMem(4 bytes @ 0x4000A504) - Data: 00 00 00 00  returns 0x00 (0001ms, 1138ms total)
T1E44 010:457 JLINK_ReadMem (0x4000A508, 0x0004 Bytes, ...) -- CPU_ReadMem(4 bytes @ 0x4000A508) - Data: 00 00 00 00  returns 0x00 (0001ms, 1139ms total)
T1E44 010:458 JLINK_ReadMem (0x4000A510, 0x0004 Bytes, ...) -- CPU_ReadMem(4 bytes @ 0x4000A510) - Data: 04 00 00 00  returns 0x00 (0001ms, 1140ms total)
T1E44 010:459 JLINK_ReadMem (0x4000A540, 0x000C Bytes, ...) -- CPU_ReadMem(12 bytes @ 0x4000A540) - Data: 00 00 00 00 00 00 00 00 00 00 00 00  returns 0x00 (0001ms, 1141ms total)
T1E44 010:460 JLINK_ReadMem (0x4000A54C, 0x0004 Bytes, ...) -- CPU_ReadMem(4 bytes @ 0x4000A54C) - Data: 00 00 00 00  returns 0x00 (0001ms, 1142ms total)
T1E44 010:461 JLINK_ReadMem (0x4000AFFC, 0x0004 Bytes, ...) -- CPU_ReadMem(4 bytes @ 0x4000AFFC) - Data: 01 00 00 00  returns 0x00 (0001ms, 1143ms total)
T1E44 010:464 JLINK_ReadMem (0x4001F500, 0x0008 Bytes, ...) -- CPU_ReadMem(8 bytes @ 0x4001F500) - Data: 00 00 00 00 00 00 00 00  returns 0x00 (0001ms, 1144ms total)
T1E44 010:465 JLINK_ReadMem (0x4001F508, 0x0004 Bytes, ...) -- CPU_ReadMem(4 bytes @ 0x4001F508) - Data: 00 00 00 00  returns 0x00 (0001ms, 1145ms total)
T1E44 010:466 JLINK_ReadMem (0x4001F510, 0x007C Bytes, ...) -- CPU_ReadMem(124 bytes @ 0x4001F510) - Data: 00 00 00 00 00 00 00 00 00 00 00 00 00 00 00 00 ...  returns 0x00 (0002ms, 1147ms total)
T1E44 010:468 JLINK_ReadMem (0x4001F58C, 0x0004 Bytes, ...) -- CPU_ReadMem(4 bytes @ 0x4001F58C) - Data: 00 00 00 00  returns 0x00 (0001ms, 1148ms total)
T1E44 010:469 JLINK_ReadMem (0x4001F800, 0x000C Bytes, ...) -- CPU_ReadMem(12 bytes @ 0x4001F800) - Data: 00 00 00 00 00 00 00 00 00 00 00 00  returns 0x00 (0001ms, 1149ms total)
T1E44 010:470 JLINK_ReadMem (0x4001F80C, 0x0004 Bytes, ...) -- CPU_ReadMem(4 bytes @ 0x4001F80C) - Data: 00 00 00 00  returns 0x00 (0001ms, 1150ms total)
T1E44 010:473 JLINK_ReadMem (0x40011100, 0x0004 Bytes, ...) -- CPU_ReadMem(4 bytes @ 0x40011100) - Data: 00 00 00 00  returns 0x00 (0002ms, 1152ms total)
T1E44 010:475 JLINK_ReadMem (0x40011104, 0x0004 Bytes, ...) -- CPU_ReadMem(4 bytes @ 0x40011104) - Data: 00 00 00 00  returns 0x00 (0001ms, 1153ms total)
T1E44 010:476 JLINK_ReadMem (0x40011140, 0x000C Bytes, ...) -- CPU_ReadMem(12 bytes @ 0x40011140) - Data: 00 00 00 00 00 00 00 00 00 00 00 00  returns 0x00 (0001ms, 1154ms total)
T1E44 010:477 JLINK_ReadMem (0x4001114C, 0x0004 Bytes, ...) -- CPU_ReadMem(4 bytes @ 0x4001114C) - Data: 00 00 00 00  returns 0x00 (0001ms, 1155ms total)
T1E44 010:478 JLINK_ReadMem (0x40011304, 0x0004 Bytes, ...) -- CPU_ReadMem(4 bytes @ 0x40011304) - Data: 00 00 00 00  returns 0x00 (0001ms, 1156ms total)
T1E44 010:479 JLINK_ReadMem (0x40011308, 0x0004 Bytes, ...) -- CPU_ReadMem(4 bytes @ 0x40011308) - Data: 00 00 00 00  returns 0x00 (0001ms, 1157ms total)
T1E44 010:480 JLINK_ReadMem (0x40011340, 0x0008 Bytes, ...) -- CPU_ReadMem(8 bytes @ 0x40011340) - Data: 00 00 00 00 00 00 00 00  returns 0x00 (0001ms, 1158ms total)
T1E44 010:481 JLINK_ReadMem (0x40011348, 0x0004 Bytes, ...) -- CPU_ReadMem(4 bytes @ 0x40011348) - Data: 00 00 00 00  returns 0x00 (0001ms, 1159ms total)
T1E44 010:482 JLINK_ReadMem (0x40011504, 0x0004 Bytes, ...) -- CPU_ReadMem(4 bytes @ 0x40011504) - Data: 00 00 00 00  returns 0x00 (0001ms, 1160ms total)
T1E44 010:483 JLINK_ReadMem (0x40011508, 0x0004 Bytes, ...) -- CPU_ReadMem(4 bytes @ 0x40011508) - Data: 00 00 00 00  returns 0x00 (0001ms, 1161ms total)
T1E44 010:484 JLINK_ReadMem (0x40011540, 0x000C Bytes, ...) -- CPU_ReadMem(12 bytes @ 0x40011540) - Data: 00 00 00 00 00 00 00 00 00 00 00 00  returns 0x00 (0001ms, 1162ms total)
T1E44 010:485 JLINK_ReadMem (0x4001154C, 0x0004 Bytes, ...) -- CPU_ReadMem(4 bytes @ 0x4001154C) - Data: 00 00 00 00  returns 0x00 (0001ms, 1163ms total)
T1E44 010:486 JLINK_ReadMem (0x40011FFC, 0x0004 Bytes, ...) -- CPU_ReadMem(4 bytes @ 0x40011FFC) - Data: 01 00 00 00  returns 0x00 (0001ms, 1164ms total)
T1E44 010:489 JLINK_ReadMem (0x40004104, 0x0004 Bytes, ...) -- CPU_ReadMem(4 bytes @ 0x40004104) - Data: 00 00 00 00  returns 0x00 (0001ms, 1165ms total)
T1E44 010:490 JLINK_ReadMem (0x40004108, 0x0004 Bytes, ...) -- CPU_ReadMem(4 bytes @ 0x40004108) - Data: 00 00 00 00  returns 0x00 (0001ms, 1166ms total)
T1E44 010:491 JLINK_ReadMem (0x4000411C, 0x0004 Bytes, ...) -- CPU_ReadMem(4 bytes @ 0x4000411C) - Data: 00 00 00 00  returns 0x00 (0001ms, 1167ms total)
T1E44 010:492 JLINK_ReadMem (0x40004124, 0x0004 Bytes, ...) -- CPU_ReadMem(4 bytes @ 0x40004124) - Data: 00 00 00 00  returns 0x00 (0001ms, 1168ms total)
T1E44 010:493 JLINK_ReadMem (0x40004138, 0x0004 Bytes, ...) -- CPU_ReadMem(4 bytes @ 0x40004138) - Data: 00 00 00 00  returns 0x00 (0001ms, 1169ms total)
T1E44 010:494 JLINK_ReadMem (0x40004148, 0x0004 Bytes, ...) -- CPU_ReadMem(4 bytes @ 0x40004148) - Data: 00 00 00 00  returns 0x00 (0001ms, 1170ms total)
T1E44 010:495 JLINK_ReadMem (0x40004200, 0x0004 Bytes, ...) -- CPU_ReadMem(4 bytes @ 0x40004200) - Data: 00 00 00 00  returns 0x00 (0001ms, 1171ms total)
T1E44 010:496 JLINK_ReadMem (0x40004304, 0x0004 Bytes, ...) -- CPU_ReadMem(4 bytes @ 0x40004304) - Data: 00 00 00 00  returns 0x00 (0001ms, 1172ms total)
T1E44 010:497 JLINK_ReadMem (0x40004308, 0x0004 Bytes, ...) -- CPU_ReadMem(4 bytes @ 0x40004308) - Data: 00 00 00 00  returns 0x00 (0001ms, 1173ms total)
T1E44 010:498 JLINK_ReadMem (0x400044C4, 0x0004 Bytes, ...) -- CPU_ReadMem(4 bytes @ 0x400044C4) - Data: 00 00 00 00  returns 0x00 (0002ms, 1175ms total)
T1E44 010:500 JLINK_ReadMem (0x40004500, 0x0004 Bytes, ...) -- CPU_ReadMem(4 bytes @ 0x40004500) - Data: 00 00 00 00  returns 0x00 (0001ms, 1176ms total)
T1E44 010:501 JLINK_ReadMem (0x40004508, 0x0004 Bytes, ...) -- CPU_ReadMem(4 bytes @ 0x40004508) - Data: FF FF FF FF  returns 0x00 (0001ms, 1177ms total)
T1E44 010:502 JLINK_ReadMem (0x4000450C, 0x0004 Bytes, ...) -- CPU_ReadMem(4 bytes @ 0x4000450C) - Data: FF FF FF FF  returns 0x00 (0001ms, 1178ms total)
T1E44 010:503 JLINK_ReadMem (0x4000451C, 0x0004 Bytes, ...) -- CPU_ReadMem(4 bytes @ 0x4000451C) - Data: 00 00 00 00  returns 0x00 (0001ms, 1179ms total)
T1E44 010:504 JLINK_ReadMem (0x40004524, 0x0004 Bytes, ...) -- CPU_ReadMem(4 bytes @ 0x40004524) - Data: 00 00 00 04  returns 0x00 (0001ms, 1180ms total)
T1E44 010:505 JLINK_ReadMem (0x40004588, 0x0004 Bytes, ...) -- CPU_ReadMem(4 bytes @ 0x40004588) - Data: 00 00 00 00  returns 0x00 (0001ms, 1181ms total)
T1E44 010:506 JLINK_ReadMem (0x40004FFC, 0x0004 Bytes, ...) -- CPU_ReadMem(4 bytes @ 0x40004FFC) - Data: 01 00 00 00  returns 0x00 (0001ms, 1182ms total)
T1E44 010:509 JLINK_ReadMem (0x40003104, 0x0004 Bytes, ...) -- CPU_ReadMem(4 bytes @ 0x40003104) - Data: 00 00 00 00  returns 0x00 (0001ms, 1183ms total)
T1E44 010:510 JLINK_ReadMem (0x40003108, 0x0004 Bytes, ...) -- CPU_ReadMem(4 bytes @ 0x40003108) - Data: 00 00 00 00  returns 0x00 (0001ms, 1184ms total)
T1E44 010:511 JLINK_ReadMem (0x4000311C, 0x0004 Bytes, ...) -- CPU_ReadMem(4 bytes @ 0x4000311C) - Data: 00 00 00 00  returns 0x00 (0003ms, 1187ms total)
T1E44 010:514 JLINK_ReadMem (0x40003124, 0x0004 Bytes, ...) -- CPU_ReadMem(4 bytes @ 0x40003124) - Data: 00 00 00 00  returns 0x00 (0001ms, 1188ms total)
T1E44 010:515 JLINK_ReadMem (0x40003138, 0x0004 Bytes, ...) -- CPU_ReadMem(4 bytes @ 0x40003138) - Data: 00 00 00 00  returns 0x00 (0001ms, 1189ms total)
T1E44 010:516 JLINK_ReadMem (0x40003148, 0x0004 Bytes, ...) -- CPU_ReadMem(4 bytes @ 0x40003148) - Data: 00 00 00 00  returns 0x00 (0001ms, 1190ms total)
T1E44 010:517 JLINK_ReadMem (0x40003200, 0x0004 Bytes, ...) -- CPU_ReadMem(4 bytes @ 0x40003200) - Data: 00 00 00 00  returns 0x00 (0001ms, 1191ms total)
T1E44 010:518 JLINK_ReadMem (0x40003304, 0x0004 Bytes, ...) -- CPU_ReadMem(4 bytes @ 0x40003304) - Data: 00 00 00 00  returns 0x00 (0001ms, 1192ms total)
T1E44 010:519 JLINK_ReadMem (0x40003308, 0x0004 Bytes, ...) -- CPU_ReadMem(4 bytes @ 0x40003308) - Data: 00 00 00 00  returns 0x00 (0001ms, 1193ms total)
T1E44 010:520 JLINK_ReadMem (0x400034C4, 0x0004 Bytes, ...) -- CPU_ReadMem(4 bytes @ 0x400034C4) - Data: 00 00 00 00  returns 0x00 (0001ms, 1194ms total)
T1E44 010:521 JLINK_ReadMem (0x40003500, 0x0004 Bytes, ...) -- CPU_ReadMem(4 bytes @ 0x40003500) - Data: 00 00 00 00  returns 0x00 (0001ms, 1195ms total)
T1E44 010:522 JLINK_ReadMem (0x40003508, 0x0004 Bytes, ...) -- CPU_ReadMem(4 bytes @ 0x40003508) - Data: FF FF FF FF  returns 0x00 (0001ms, 1196ms total)
T1E44 010:523 JLINK_ReadMem (0x4000350C, 0x0004 Bytes, ...) -- CPU_ReadMem(4 bytes @ 0x4000350C) - Data: FF FF FF FF  returns 0x00 (0001ms, 1197ms total)
T1E44 010:524 JLINK_ReadMem (0x4000351C, 0x0004 Bytes, ...) -- CPU_ReadMem(4 bytes @ 0x4000351C) - Data: 00 00 00 00  returns 0x00 (0001ms, 1198ms total)
T1E44 010:525 JLINK_ReadMem (0x40003524, 0x0004 Bytes, ...) -- CPU_ReadMem(4 bytes @ 0x40003524) - Data: 00 00 00 04  returns 0x00 (0001ms, 1199ms total)
T1E44 010:526 JLINK_ReadMem (0x40003588, 0x0004 Bytes, ...) -- CPU_ReadMem(4 bytes @ 0x40003588) - Data: 00 00 00 00  returns 0x00 (0001ms, 1200ms total)
T1E44 010:527 JLINK_ReadMem (0x40003FFC, 0x0004 Bytes, ...) -- CPU_ReadMem(4 bytes @ 0x40003FFC) - Data: 01 00 00 00  returns 0x00 (0001ms, 1201ms total)
T1E44 010:529 JLINK_ReadMem (0x40009140, 0x000C Bytes, ...) -- CPU_ReadMem(12 bytes @ 0x40009140) - Data: 00 00 00 00 00 00 00 00 00 00 00 00  returns 0x00 (0001ms, 1202ms total)
T1E44 010:530 JLINK_ReadMem (0x4000914C, 0x0004 Bytes, ...) -- CPU_ReadMem(4 bytes @ 0x4000914C) - Data: 00 00 00 00  returns 0x00 (0001ms, 1203ms total)
T1E44 010:531 JLINK_ReadMem (0x40009200, 0x0004 Bytes, ...) -- CPU_ReadMem(4 bytes @ 0x40009200) - Data: 00 00 00 00  returns 0x00 (0001ms, 1204ms total)
T1E44 010:532 JLINK_ReadMem (0x40009304, 0x0004 Bytes, ...) -- CPU_ReadMem(4 bytes @ 0x40009304) - Data: 00 00 00 00  returns 0x00 (0001ms, 1205ms total)
T1E44 010:533 JLINK_ReadMem (0x40009308, 0x0004 Bytes, ...) -- CPU_ReadMem(4 bytes @ 0x40009308) - Data: 00 00 00 00  returns 0x00 (0001ms, 1206ms total)
T1E44 010:534 JLINK_ReadMem (0x40009504, 0x0004 Bytes, ...) -- CPU_ReadMem(4 bytes @ 0x40009504) - Data: 00 00 00 00  returns 0x00 (0001ms, 1207ms total)
T1E44 010:535 JLINK_ReadMem (0x40009508, 0x0004 Bytes, ...) -- CPU_ReadMem(4 bytes @ 0x40009508) - Data: 00 00 00 00  returns 0x00 (0001ms, 1208ms total)
T1E44 010:536 JLINK_ReadMem (0x40009510, 0x0004 Bytes, ...) -- CPU_ReadMem(4 bytes @ 0x40009510) - Data: 04 00 00 00  returns 0x00 (0001ms, 1209ms total)
T1E44 010:537 JLINK_ReadMem (0x40009540, 0x000C Bytes, ...) -- CPU_ReadMem(12 bytes @ 0x40009540) - Data: 00 00 00 00 00 00 00 00 00 00 00 00  returns 0x00 (0002ms, 1211ms total)
T1E44 010:539 JLINK_ReadMem (0x4000954C, 0x0004 Bytes, ...) -- CPU_ReadMem(4 bytes @ 0x4000954C) - Data: 00 00 00 00  returns 0x00 (0001ms, 1212ms total)
T1E44 010:540 JLINK_ReadMem (0x40009FFC, 0x0004 Bytes, ...) -- CPU_ReadMem(4 bytes @ 0x40009FFC) - Data: 01 00 00 00  returns 0x00 (0001ms, 1213ms total)
T1E44 010:543 JLINK_ReadMem (0x40008140, 0x000C Bytes, ...) -- CPU_ReadMem(12 bytes @ 0x40008140) - Data: 00 00 00 00 00 00 00 00 00 00 00 00  returns 0x00 (0002ms, 1215ms total)
T1E44 010:545 JLINK_ReadMem (0x4000814C, 0x0004 Bytes, ...) -- CPU_ReadMem(4 bytes @ 0x4000814C) - Data: 00 00 00 00  returns 0x00 (0001ms, 1216ms total)
T1E44 010:546 JLINK_ReadMem (0x40008200, 0x0004 Bytes, ...) -- CPU_ReadMem(4 bytes @ 0x40008200) - Data: 00 00 00 00  returns 0x00 (0001ms, 1217ms total)
T1E44 010:547 JLINK_ReadMem (0x40008304, 0x0004 Bytes, ...) -- CPU_ReadMem(4 bytes @ 0x40008304) - Data: 00 00 00 00  returns 0x00 (0001ms, 1218ms total)
T1E44 010:548 JLINK_ReadMem (0x40008308, 0x0004 Bytes, ...) -- CPU_ReadMem(4 bytes @ 0x40008308) - Data: 00 00 00 00  returns 0x00 (0001ms, 1219ms total)
T1E44 010:549 JLINK_ReadMem (0x40008504, 0x0004 Bytes, ...) -- CPU_ReadMem(4 bytes @ 0x40008504) - Data: 00 00 00 00  returns 0x00 (0001ms, 1220ms total)
T1E44 010:550 JLINK_ReadMem (0x40008508, 0x0004 Bytes, ...) -- CPU_ReadMem(4 bytes @ 0x40008508) - Data: 00 00 00 00  returns 0x00 (0001ms, 1221ms total)
T1E44 010:551 JLINK_ReadMem (0x40008510, 0x0004 Bytes, ...) -- CPU_ReadMem(4 bytes @ 0x40008510) - Data: 04 00 00 00  returns 0x00 (0001ms, 1222ms total)
T1E44 010:552 JLINK_ReadMem (0x40008540, 0x000C Bytes, ...) -- CPU_ReadMem(12 bytes @ 0x40008540) - Data: 00 00 00 00 00 00 00 00 00 00 00 00  returns 0x00 (0001ms, 1223ms total)
T1E44 010:553 JLINK_ReadMem (0x4000854C, 0x0004 Bytes, ...) -- CPU_ReadMem(4 bytes @ 0x4000854C) - Data: 00 00 00 00  returns 0x00 (0001ms, 1224ms total)
T1E44 010:554 JLINK_ReadMem (0x40008FFC, 0x0004 Bytes, ...) -- CPU_ReadMem(4 bytes @ 0x40008FFC) - Data: 01 00 00 00  returns 0x00 (0001ms, 1225ms total)
T1E44 010:557 JLINK_ReadMem (0x4000C100, 0x0004 Bytes, ...) -- CPU_ReadMem(4 bytes @ 0x4000C100) - Data: 00 00 00 00  returns 0x00 (0001ms, 1226ms total)
T1E44 010:558 JLINK_ReadMem (0x4000C304, 0x0004 Bytes, ...) -- CPU_ReadMem(4 bytes @ 0x4000C304) - Data: 00 00 00 00  returns 0x00 (0001ms, 1227ms total)
T1E44 010:559 JLINK_ReadMem (0x4000C308, 0x0004 Bytes, ...) -- CPU_ReadMem(4 bytes @ 0x4000C308) - Data: 00 00 00 00  returns 0x00 (0001ms, 1228ms total)
T1E44 010:560 JLINK_ReadMem (0x4000C508, 0x0004 Bytes, ...) -- CPU_ReadMem(4 bytes @ 0x4000C508) - Data: 00 00 00 00  returns 0x00 (0001ms, 1229ms total)
T1E44 010:561 JLINK_ReadMem (0x4000CFFC, 0x0004 Bytes, ...) -- CPU_ReadMem(4 bytes @ 0x4000CFFC) - Data: 01 00 00 00  returns 0x00 (0001ms, 1230ms total)
T1E44 010:565 JLINK_ReadMem (0x40003108, 0x0004 Bytes, ...) -- CPU_ReadMem(4 bytes @ 0x40003108) - Data: 00 00 00 00  returns 0x00 (0002ms, 1232ms total)
T1E44 010:567 JLINK_ReadMem (0x40003304, 0x0004 Bytes, ...) -- CPU_ReadMem(4 bytes @ 0x40003304) - Data: 00 00 00 00  returns 0x00 (0001ms, 1233ms total)
T1E44 010:568 JLINK_ReadMem (0x40003308, 0x0004 Bytes, ...) -- CPU_ReadMem(4 bytes @ 0x40003308) - Data: 00 00 00 00  returns 0x00 (0001ms, 1234ms total)
T1E44 010:569 JLINK_ReadMem (0x40003500, 0x0004 Bytes, ...) -- CPU_ReadMem(4 bytes @ 0x40003500) - Data: 00 00 00 00  returns 0x00 (0001ms, 1235ms total)
T1E44 010:570 JLINK_ReadMem (0x40003508, 0x0008 Bytes, ...) -- CPU_ReadMem(8 bytes @ 0x40003508) - Data: FF FF FF FF FF FF FF FF  returns 0x00 (0001ms, 1236ms total)
T1E44 010:571 JLINK_ReadMem (0x40003510, 0x0004 Bytes, ...) -- CPU_ReadMem(4 bytes @ 0x40003510) - Data: FF FF FF FF  returns 0x00 (0001ms, 1237ms total)
T1E44 010:572 JLINK_ReadMem (0x4000351C, 0x0004 Bytes, ...) -- CPU_ReadMem(4 bytes @ 0x4000351C) - Data: 00 00 00 00  returns 0x00 (0001ms, 1238ms total)
T1E44 010:573 JLINK_ReadMem (0x40003524, 0x0004 Bytes, ...) -- CPU_ReadMem(4 bytes @ 0x40003524) - Data: 00 00 00 04  returns 0x00 (0001ms, 1239ms total)
T1E44 010:574 JLINK_ReadMem (0x40003554, 0x0004 Bytes, ...) -- CPU_ReadMem(4 bytes @ 0x40003554) - Data: 00 00 00 00  returns 0x00 (0001ms, 1240ms total)
T1E44 010:575 JLINK_ReadMem (0x40003FFC, 0x0004 Bytes, ...) -- CPU_ReadMem(4 bytes @ 0x40003FFC) - Data: 01 00 00 00  returns 0x00 (0001ms, 1241ms total)
T1E44 010:577 JLINK_ReadMem (0x0000D664, 0x003C Bytes, ...) -- CPU_ReadMem(128 bytes @ 0x0000D640) -- Updating C cache (128 bytes @ 0x0000D640) -- Read from C cache (60 bytes @ 0x0000D664) - Data: 0C 49 4B 68 C3 60 8B 68 83 60 CB 68 43 60 08 68 ...  returns 0x00 (0003ms, 1244ms total)
T1E44 010:580 JLINK_ReadMem (0x0000D6A0, 0x003C Bytes, ...) -- CPU_ReadMem(64 bytes @ 0x0000D6C0) -- Updating C cache (64 bytes @ 0x0000D6C0) -- Read from C cache (60 bytes @ 0x0000D6A0) - Data: 06 20 10 DF 00 28 03 D0 00 22 11 46 FF F7 E2 FE ...  returns 0x00 (0002ms, 1246ms total)
T1E44 010:582 JLINK_ReadMem (0x0000D6DC, 0x003C Bytes, ...) -- CPU_ReadMem(64 bytes @ 0x0000D700) -- Updating C cache (64 bytes @ 0x0000D700) -- Read from C cache (60 bytes @ 0x0000D6DC) - Data: 41 1E 09 78 C1 71 01 20 FF F7 4B FE 02 20 FF F7 ...  returns 0x00 (0002ms, 1248ms total)
T1E44 010:584 JLINK_ReadMem (0x0000D71C, 0x003C Bytes, ...) -- CPU_ReadMem(64 bytes @ 0x0000D740) -- Updating C cache (64 bytes @ 0x0000D740) -- Read from C cache (60 bytes @ 0x0000D71C) - Data: 10 48 01 8C C9 B2 01 29 17 D1 81 8C 09 07 14 D1 ...  returns 0x00 (0002ms, 1250ms total)
T1E44 010:586 JLINK_ReadMem (0x0000D758, 0x003C Bytes, ...) -- CPU_ReadMem(64 bytes @ 0x0000D780) -- Updating C cache (64 bytes @ 0x0000D780) -- Read from C cache (60 bytes @ 0x0000D758) - Data: 70 47 01 20 70 47 00 00 C0 0F 00 F0 FF F7 0C FF ...  returns 0x00 (0002ms, 1252ms total)
T1E44 012:480 JLINK_ReadMem (0x0000D524, 0x003C Bytes, ...) -- CPU_ReadMem(128 bytes @ 0x0000D500) -- Updating C cache (128 bytes @ 0x0000D500) -- Read from C cache (60 bytes @ 0x0000D524) - Data: 00 F0 E6 F9 03 49 00 20 48 55 6D 1C 20 2D FB D3 ...  returns 0x00 (0004ms, 1256ms total)
T1E44 012:484 JLINK_ReadMem (0x0000D560, 0x003C Bytes, ...) -- CPU_ReadMem(64 bytes @ 0x0000D580) -- Updating C cache (64 bytes @ 0x0000D580) -- Read from C cache (60 bytes @ 0x0000D560) - Data: 00 78 03 28 02 D0 80 28 06 D1 02 E0 FF F7 84 FF ...  returns 0x00 (0002ms, 1258ms total)
T1938 018:239 JLINK_SetBPEx(Addr = 0x0000D530, Type = 0xFFFFFFF2)  returns 0x00000003 (0001ms, 1259ms total)
T1938 018:240 JLINK_Go() -- CPU_WriteMem(4 bytes @ 0xE0002000) -- CPU_WriteMem(4 bytes @ 0xE0002008) -- CPU_WriteMem(4 bytes @ 0xE000200C) (0005ms, 1264ms total)
T1938 018:345 JLINK_IsHalted()  returns FALSE (0002ms, 1266ms total)
T1938 018:447 JLINK_IsHalted()  returns FALSE (0001ms, 1265ms total)
T1938 018:548 JLINK_IsHalted()  returns FALSE (0001ms, 1265ms total)
T1938 018:649 JLINK_IsHalted()  returns FALSE (0001ms, 1265ms total)
T1938 018:750 JLINK_IsHalted()  returns FALSE (0002ms, 1266ms total)
T1938 018:852 JLINK_IsHalted()  returns FALSE (0002ms, 1266ms total)
T1938 018:954 JLINK_IsHalted()  returns FALSE (0002ms, 1266ms total)
T1938 019:056 JLINK_IsHalted()  returns FALSE (0000ms, 1264ms total)
T1938 019:156 JLINK_IsHalted()  returns FALSE (0002ms, 1266ms total)
T1938 019:258 JLINK_IsHalted()  returns FALSE (0001ms, 1265ms total)
T1938 019:359 JLINK_IsHalted()  returns FALSE (0000ms, 1264ms total)
T1938 019:459 JLINK_IsHalted()  returns FALSE (0000ms, 1264ms total)
T1938 019:559 JLINK_IsHalted()  returns FALSE (0000ms, 1264ms total)
T1938 019:659 JLINK_IsHalted()  returns FALSE (0000ms, 1264ms total)
T1938 019:759 JLINK_IsHalted()  returns FALSE (0001ms, 1265ms total)
T1938 019:860 JLINK_IsHalted()  returns FALSE (0001ms, 1265ms total)
T1938 019:961 JLINK_IsHalted()  returns FALSE (0001ms, 1265ms total)
T1938 020:062 JLINK_IsHalted()  returns FALSE (0001ms, 1265ms total)
T1938 020:163 JLINK_IsHalted()  returns FALSE (0001ms, 1265ms total)
T1938 020:264 JLINK_IsHalted()  returns FALSE (0002ms, 1266ms total)
T1938 020:366 JLINK_IsHalted()  returns FALSE (0000ms, 1264ms total)
T1938 020:466 JLINK_IsHalted()  returns FALSE (0001ms, 1265ms total)
T1938 020:567 JLINK_IsHalted()  returns FALSE (0001ms, 1265ms total)
T1938 020:668 JLINK_IsHalted()  returns FALSE (0000ms, 1264ms total)
T1938 020:768 JLINK_IsHalted()  returns FALSE (0000ms, 1264ms total)
T1938 020:868 JLINK_IsHalted()  returns FALSE (0000ms, 1264ms total)
T1938 020:968 JLINK_IsHalted()  returns FALSE (0000ms, 1264ms total)
T1938 021:068 JLINK_IsHalted()  returns FALSE (0001ms, 1265ms total)
T1938 021:169 JLINK_IsHalted()  returns FALSE (0001ms, 1265ms total)
T1938 021:270 JLINK_IsHalted()  returns FALSE (0002ms, 1266ms total)
T1938 021:372 JLINK_IsHalted()  returns FALSE (0001ms, 1265ms total)
T1938 021:473 JLINK_IsHalted()  returns FALSE (0001ms, 1265ms total)
T1938 021:574 JLINK_IsHalted()  returns FALSE (0001ms, 1265ms total)
T1938 021:675 JLINK_IsHalted()  returns FALSE (0001ms, 1265ms total)
T1938 021:776 JLINK_IsHalted()  returns FALSE (0001ms, 1265ms total)
T1938 021:877 JLINK_IsHalted()  returns FALSE (0001ms, 1265ms total)
T1938 021:978 JLINK_IsHalted()  returns FALSE (0001ms, 1265ms total)
T1938 022:079 JLINK_IsHalted()  returns FALSE (0001ms, 1265ms total)
T1938 022:180 JLINK_IsHalted()  returns FALSE (0001ms, 1265ms total)
T1938 022:281 JLINK_IsHalted()  returns FALSE (0002ms, 1266ms total)
T1938 022:383 JLINK_IsHalted()  returns FALSE (0001ms, 1265ms total)
T1938 022:484 JLINK_IsHalted()  returns FALSE (0001ms, 1265ms total)
T1938 022:585 JLINK_IsHalted()  returns FALSE (0001ms, 1265ms total)
T1938 022:686 JLINK_IsHalted()  returns FALSE (0001ms, 1265ms total)
T1938 022:787 JLINK_IsHalted()  returns FALSE (0001ms, 1265ms total)
T1938 022:888 JLINK_IsHalted()  returns FALSE (0001ms, 1265ms total)
T1938 022:989 JLINK_IsHalted()  returns FALSE (0001ms, 1265ms total)
T1938 023:090 JLINK_IsHalted()  returns FALSE (0001ms, 1265ms total)
T1938 023:191 JLINK_IsHalted()  returns FALSE (0001ms, 1265ms total)
T1938 023:292 JLINK_IsHalted()  returns FALSE (0002ms, 1266ms total)
T1938 023:394 JLINK_IsHalted()  returns FALSE (0001ms, 1265ms total)
T1938 023:495 JLINK_IsHalted()  returns FALSE (0001ms, 1265ms total)
T1938 023:596 JLINK_IsHalted()  returns FALSE (0001ms, 1265ms total)
T1938 023:697 JLINK_IsHalted()  returns FALSE (0001ms, 1265ms total)
T1938 023:798 JLINK_IsHalted()  returns FALSE (0001ms, 1265ms total)
T1938 023:899 JLINK_IsHalted()  returns FALSE (0001ms, 1265ms total)
T1938 024:000 JLINK_IsHalted()  returns FALSE (0001ms, 1265ms total)
T1938 024:101 JLINK_IsHalted()  returns FALSE (0001ms, 1265ms total)
